
T1C18 000:036 SEGGER J-Link V6.10i Log File (0001ms, 0029ms total)
T1C18 000:036 DLL Compiled: Oct 25 2016 19:31:51 (0001ms, 0029ms total)
T1C18 000:036 Logging started @ 2017-06-01 21:02 (0001ms, 0029ms total)
T1C18 000:037 JLINK_SetWarnOutHandler(...) (0000ms, 0029ms total)
T1C18 000:037 JLINK_OpenEx(...)
Firmware: J-Link ARM V8 compiled Nov 28 2014 13:44:46
Hardware: V8.00
S/N: 308622870
Feature(s): RDI,FlashDL,FlashBP,JFlash,GDBFULLWEBSRV Webserver running on local port 19080 (0018ms, 0047ms total)
T1C18 000:037   returns O.K. (0018ms, 0047ms total)
T1C18 000:055 JLINK_SetErrorOutHandler(...) (0000ms, 0047ms total)
T1C18 000:055 JLINK_ExecCommand("ProjectFile = "D:\Workspace\projects\MCU\STM32\STM32F4\STM32F4-SDIO\JLinkSettings.ini"", ...).   returns 0x00 (0120ms, 0167ms total)
T1C18 000:175 JLINK_ExecCommand("Device = STM32F407ZGTx", ...). Device "STM32F407ZG" selected.  returns 0x00 (0001ms, 0168ms total)
T1C18 000:176 JLINK_ExecCommand("DisableConnectionTimeout", ...).   returns 0x01 (0000ms, 0168ms total)
T1C18 000:176 JLINK_GetHardwareVersion()  returns 0x13880 (0000ms, 0168ms total)
T1C18 000:176 JLINK_GetDLLVersion()  returns 61009 (0000ms, 0168ms total)
T1C18 000:176 JLINK_GetFirmwareString(...) (0000ms, 0168ms total)
T1C18 000:176 JLINK_GetDLLVersion()  returns 61009 (0000ms, 0168ms total)
T1C18 000:176 JLINK_GetCompileDateTime() (0000ms, 0168ms total)
T1C18 000:176 JLINK_GetFirmwareString(...) (0000ms, 0168ms total)
T1C18 000:176 JLINK_GetHardwareVersion()  returns 0x13880 (0000ms, 0168ms total)
T1C18 000:176 JLINK_TIF_Select(JLINKARM_TIF_JTAG)  returns 0x00 (0005ms, 0173ms total)
T1C18 000:181 JLINK_SetSpeed(5000) (0000ms, 0173ms total)
T1C18 000:181 JLINK_GetIdData(...) >0x2F8 JTAG>TotalIRLen = 9, IRPrint = 0x0011 >0x30 JTAG> >0x410 JTAG> >0x40 JTAG> >0x40 JTAG> >0x40 JTAG> >0x30 JTAG> >0x40 JTAG> >0x40 JTAG> >0x40 JTAG> >0x40 JTAG> >0x40 JTAG> >0x40 JTAG> >0x40 JTAG> >0x40 JTAG> >0x40 JTAG> >0x40 JTAG> >0x40 JTAG> >0x40 JTAG> >0x40 JTAG> >0x40 JTAG> >0x40 JTAG> >0x40 JTAG> >0x40 JTAG> >0x40 JTAG> >0x40 JTAG> >0x40 JTAG> >0x2F8 JTAG>TotalIRLen = 9, IRPrint = 0x0011 >0x30 JTAG> >0x410 JTAG> >0x70 JTAG> >0x50 JTAG> >0x40 JTAG>
 >0x50 JTAG>AP-IDR: 0x24770011, Type: AHB-APStart searching for Cortex-M ROM table with ROMTable[0] @ 0xE00FF000.ROMTable[1]: Cortex-M ROM table found. >0x80 JTAG> >0x40 JTAG> >0x30 JTAG> >0x40 JTAG> >0x40 JTAG> >0x30 JTAG> >0x40 JTAG> >0x50 JTAG>Found Cortex-M4 r0p1, Little endian. -- CPU_ReadMem(4 bytes @ 0xE000EDF0) -- CPU_WriteMem(4 bytes @ 0xE000EDF0) -- CPU_ReadMem(4 bytes @ 0xE0002000)FPUnit: 6 code (BP) slots and 2 literal slots -- CPU_ReadMem(4 bytes @ 0xE000EDFC)
 -- CPU_WriteMem(4 bytes @ 0xE000EDFC) -- CPU_ReadMem(4 bytes @ 0xE0001000) -- CPU_WriteMem(4 bytes @ 0xE0001000) -- CPU_ReadMem(4 bytes @ 0xE000ED88) -- CPU_WriteMem(4 bytes @ 0xE000ED88) -- CPU_ReadMem(4 bytes @ 0xE000ED88) -- CPU_WriteMem(4 bytes @ 0xE000ED88)CoreSight components:ROMTbl 0 @ E00FF000 -- CPU_ReadMem(16 bytes @ 0xE00FF000) -- CPU_ReadMem(16 bytes @ 0xE000EFF0) -- CPU_ReadMem(16 bytes @ 0xE000EFE0)ROMTbl 0 [0]: FFF0F000, CID: B105E00D, PID: 000BB00C SCS
 -- CPU_ReadMem(16 bytes @ 0xE0001FF0) -- CPU_ReadMem(16 bytes @ 0xE0001FE0)ROMTbl 0 [1]: FFF02000, CID: B105E00D, PID: 003BB002 DWT -- CPU_ReadMem(16 bytes @ 0xE0002FF0) -- CPU_ReadMem(16 bytes @ 0xE0002FE0)ROMTbl 0 [2]: FFF03000, CID: B105E00D, PID: 002BB003 FPB -- CPU_ReadMem(16 bytes @ 0xE0000FF0) -- CPU_ReadMem(16 bytes @ 0xE0000FE0)ROMTbl 0 [3]: FFF01000, CID: B105E00D, PID: 003BB001 ITM -- CPU_ReadMem(16 bytes @ 0xE00FF010) -- CPU_ReadMem(16 bytes @ 0xE0040FF0)
 -- CPU_ReadMem(16 bytes @ 0xE0040FE0)ROMTbl 0 [4]: FFF41000, CID: B105900D, PID: 000BB9A1 TPIU -- CPU_ReadMem(16 bytes @ 0xE0041FF0) -- CPU_ReadMem(16 bytes @ 0xE0041FE0)ROMTbl 0 [5]: FFF42000, CID: B105900D, PID: 000BB925 ETM ScanLen=9 NumDevices=2 aId[0]=0x4BA00477 aIrRead[0]=0 aScanLen[0]=0 aScanRead[0]=0 (0070ms, 0243ms total)
T1C18 000:251 JLINK_JTAG_GetDeviceID(DeviceIndex = 0)  returns 0x4BA00477 (0000ms, 0243ms total)
T1C18 000:251 JLINK_JTAG_GetDeviceInfo(DeviceIndex = 0)  returns 0x00 (0001ms, 0244ms total)
T1C18 000:252 JLINK_JTAG_GetDeviceID(DeviceIndex = 1)  returns 0x6413041 (0000ms, 0244ms total)
T1C18 000:252 JLINK_JTAG_GetDeviceInfo(DeviceIndex = 1)  returns 0x00 (0000ms, 0244ms total)
T1C18 000:252 JLINK_GetDLLVersion()  returns 61009 (0000ms, 0244ms total)
T1C18 000:252 JLINK_CORE_GetFound()  returns 0xE0000FF (0000ms, 0244ms total)
T1C18 000:252 JLINK_GetDebugInfo(0x100) -- Value=0xE00FF003  returns 0x00 (0000ms, 0244ms total)
T1C18 000:252 JLINK_GetDebugInfo(0x100) -- Value=0xE00FF003  returns 0x00 (0000ms, 0244ms total)
T1C18 000:252 JLINK_GetDebugInfo(0x101) -- Value=0xE0041000  returns 0x00 (0000ms, 0244ms total)
T1C18 000:252 JLINK_GetDebugInfo(0x102) -- Value=0x00000000  returns 0x00 (0000ms, 0244ms total)
T1C18 000:252 JLINK_GetDebugInfo(0x103) -- Value=0xE0040000  returns 0x00 (0000ms, 0244ms total)
T1C18 000:252 JLINK_GetDebugInfo(0x104) -- Value=0xE0000000  returns 0x00 (0000ms, 0244ms total)
T1C18 000:252 JLINK_GetDebugInfo(0x105) -- Value=0xE0001000  returns 0x00 (0000ms, 0244ms total)
T1C18 000:252 JLINK_GetDebugInfo(0x106) -- Value=0xE0002000  returns 0x00 (0000ms, 0244ms total)
T1C18 000:252 JLINK_GetDebugInfo(0x107) -- Value=0xE000E000  returns 0x00 (0000ms, 0244ms total)
T1C18 000:252 JLINK_GetDebugInfo(0x10C) -- Value=0xE000EDF0  returns 0x00 (0000ms, 0244ms total)
T1C18 000:252 JLINK_ReadMemU32(0xE000EF40, 0x0001 Items, ...) -- CPU is running -- CPU_ReadMem(4 bytes @ 0xE000EF40) - Data: 21 00 11 10  returns 0x01 (0002ms, 0246ms total)
T1C18 000:254 JLINK_ReadMemU32(0xE000EF44, 0x0001 Items, ...) -- CPU is running -- CPU_ReadMem(4 bytes @ 0xE000EF44) - Data: 11 00 00 11  returns 0x01 (0001ms, 0247ms total)
T1C18 000:255 JLINK_ReadMemU32(0xE000ED00, 0x0001 Items, ...) -- CPU is running -- CPU_ReadMem(4 bytes @ 0xE000ED00) - Data: 41 C2 0F 41  returns 0x01 (0001ms, 0248ms total)
T1C18 000:256 JLINK_SetResetType(JLINKARM_RESET_TYPE_NORMAL)  returns JLINKARM_RESET_TYPE_NORMAL (0000ms, 0248ms total)
T1C18 000:256 JLINK_Reset() -- CPU is running -- CPU_WriteMem(4 bytes @ 0xE000EDF0) -- CPU is running -- CPU_WriteMem(4 bytes @ 0xE000EDFC) -- CPU is running -- CPU_WriteMem(4 bytes @ 0xE000ED0C) -- CPU is running -- CPU_ReadMem(4 bytes @ 0xE000EDF0) -- CPU is running -- CPU_ReadMem(4 bytes @ 0xE000EDF0) -- CPU is running -- CPU_WriteMem(4 bytes @ 0xE000EDF0) -- CPU is running -- CPU_WriteMem(4 bytes @ 0xE000EDFC) -- CPU is running -- CPU_ReadMem(4 bytes @ 0xE000EDF0) >0x80 JTAG> >0x40 JTAG> >0x30 JTAG>
 >0x40 JTAG> >0x50 JTAG> >0x40 JTAG> -- CPU_WriteMem(4 bytes @ 0xE000EDFC) -- CPU_WriteMem(4 bytes @ 0xE0001028) -- CPU_WriteMem(4 bytes @ 0xE0001038) -- CPU_WriteMem(4 bytes @ 0xE0001048) -- CPU_WriteMem(4 bytes @ 0xE0001058) -- CPU_WriteMem(4 bytes @ 0xE0002000) -- CPU_ReadMem(4 bytes @ 0xE000EDFC) -- CPU_ReadMem(4 bytes @ 0xE0001000) (0034ms, 0282ms total)
T1C18 000:290 JLINK_ReadReg(R15 (PC))  returns 0x0800019C (0000ms, 0282ms total)
T1C18 000:290 JLINK_ReadReg(XPSR)  returns 0x01000000 (0000ms, 0282ms total)
T1C18 000:290 JLINK_Halt()  returns 0x00 (0000ms, 0282ms total)
T1C18 000:290 JLINK_IsHalted()  returns TRUE (0000ms, 0282ms total)
T1C18 000:290 JLINK_ReadMemU32(0xE000EDF0, 0x0001 Items, ...) -- CPU_ReadMem(4 bytes @ 0xE000EDF0) - Data: 03 00 03 00  returns 0x01 (0001ms, 0283ms total)
T1C18 000:291 JLINK_WriteU32(0xE000EDF0, 0xA05F0003) -- CPU_WriteMem(4 bytes @ 0xE000EDF0)  returns 0x00 (0001ms, 0284ms total)
T1C18 000:292 JLINK_WriteU32(0xE000EDFC, 0x01000000) -- CPU_WriteMem(4 bytes @ 0xE000EDFC)  returns 0x00 (0001ms, 0285ms total)
T1C18 000:293 JLINK_GetHWStatus(...)  returns 0x00 (0001ms, 0286ms total)
T1C18 000:294 JLINK_GetNumBPUnits(Type = 0xFFFFFF00)  returns 0x06 (0000ms, 0286ms total)
T1C18 000:294 JLINK_GetNumBPUnits(Type = 0xF0)  returns 0x2000 (0000ms, 0286ms total)
T1C18 000:294 JLINK_GetNumWPUnits()  returns 0x04 (0000ms, 0286ms total)
T1C18 000:294 JLINK_GetSpeed()  returns 0x12C0 (0000ms, 0286ms total)
T1C18 000:294 JLINK_ReadMemU32(0xE000E004, 0x0001 Items, ...) -- CPU_ReadMem(4 bytes @ 0xE000E004) - Data: 02 00 00 00  returns 0x01 (0001ms, 0287ms total)
T1C18 000:295 JLINK_ReadMemU32(0xE000E004, 0x0001 Items, ...) -- CPU_ReadMem(4 bytes @ 0xE000E004) - Data: 02 00 00 00  returns 0x01 (0002ms, 0289ms total)
T1C18 000:297 JLINK_WriteMem(0xE0001000, 0x001C Bytes, ...) - Data: 01 00 00 00 00 00 00 00 00 00 00 00 00 00 00 00 ... -- CPU_WriteMem(28 bytes @ 0xE0001000)  returns 0x1C (0002ms, 0291ms total)
T1C18 000:299 JLINK_ReadMem (0xE0001000, 0x001C Bytes, ...) -- CPU_ReadMem(28 bytes @ 0xE0001000) - Data: 01 00 00 40 00 00 00 00 00 00 00 00 00 00 00 00 ...  returns 0x00 (0002ms, 0293ms total)
T1C18 000:301 JLINK_ReadReg(R15 (PC))  returns 0x0800019C (0000ms, 0293ms total)
T1C18 000:301 JLINK_ReadReg(XPSR)  returns 0x01000000 (0000ms, 0293ms total)
T1C18 000:416 JLINK_SetResetType(JLINKARM_RESET_TYPE_NORMAL)  returns JLINKARM_RESET_TYPE_NORMAL (0000ms, 0293ms total)
T1C18 000:416 JLINK_Reset() -- CPU_WriteMem(4 bytes @ 0xE000EDF0) -- CPU_WriteMem(4 bytes @ 0xE000EDFC) -- CPU_WriteMem(4 bytes @ 0xE000ED0C) -- CPU_ReadMem(4 bytes @ 0xE000EDF0) -- CPU_ReadMem(4 bytes @ 0xE000EDF0) -- CPU_WriteMem(4 bytes @ 0xE000EDF0) -- CPU_WriteMem(4 bytes @ 0xE000EDFC) -- CPU is running -- CPU_ReadMem(4 bytes @ 0xE000EDF0) >0x80 JTAG> >0x40 JTAG> >0x30 JTAG> >0x40 JTAG> >0x50 JTAG> >0x40 JTAG> -- CPU_WriteMem(4 bytes @ 0xE000EDFC) -- CPU_WriteMem(4 bytes @ 0xE0001028)
 -- CPU_WriteMem(4 bytes @ 0xE0001038) -- CPU_WriteMem(4 bytes @ 0xE0001048) -- CPU_WriteMem(4 bytes @ 0xE0001058) -- CPU_WriteMem(4 bytes @ 0xE0002000) -- CPU_ReadMem(4 bytes @ 0xE000EDFC) -- CPU_ReadMem(4 bytes @ 0xE0001000) (0041ms, 0334ms total)
T1C18 000:458 JLINK_ReadReg(R15 (PC))  returns 0x0800019C (0000ms, 0334ms total)
T1C18 000:458 JLINK_ReadReg(XPSR)  returns 0x01000000 (0000ms, 0334ms total)
T1C18 000:459 JLINK_ReadMem (0x08000188, 0x003C Bytes, ...) -- CPU_ReadMem(128 bytes @ 0x08000180) -- Updating C cache (128 bytes @ 0x08000180) -- Read from C cache (60 bytes @ 0x08000188) - Data: DF F8 0C D0 00 F0 82 F8 00 48 00 47 CD 39 00 08 ...  returns 0x00 (0002ms, 0336ms total)
T1AD8 001:309 JLINK_SetBPEx(Addr = 0x080039CC, Type = 0xFFFFFFF2)  returns 0x00000001 (0000ms, 0336ms total)
T1AD8 001:309 JLINK_SetBPEx(Addr = 0x08003A0C, Type = 0xFFFFFFF2)  returns 0x00000002 (0000ms, 0336ms total)
T1AD8 001:309 JLINK_Go() -- CPU_ReadMem(4 bytes @ 0xE0001000) -- CPU_WriteMem(4 bytes @ 0xE0002008) -- CPU_WriteMem(4 bytes @ 0xE000200C) -- CPU_WriteMem(4 bytes @ 0xE0002010) -- CPU_WriteMem(4 bytes @ 0xE0002014) -- CPU_WriteMem(4 bytes @ 0xE0002018) -- CPU_WriteMem(4 bytes @ 0xE000201C) -- CPU_WriteMem(4 bytes @ 0xE0001004) (0005ms, 0341ms total)
T1AD8 001:415 JLINK_IsHalted()  returns TRUE (0004ms, 0345ms total)
T1AD8 001:419 JLINK_Halt()  returns 0x00 (0000ms, 0341ms total)
T1AD8 001:419 JLINK_IsHalted()  returns TRUE (0000ms, 0341ms total)
T1AD8 001:419 JLINK_IsHalted()  returns TRUE (0000ms, 0341ms total)
T1AD8 001:419 JLINK_IsHalted()  returns TRUE (0000ms, 0341ms total)
T1AD8 001:419 JLINK_ReadReg(R15 (PC))  returns 0x080039CC (0000ms, 0341ms total)
T1AD8 001:419 JLINK_ReadReg(XPSR)  returns 0x61000000 (0000ms, 0341ms total)
T1AD8 001:419 JLINK_ClrBPEx(BPHandle = 0x00000001)  returns 0x00 (0000ms, 0341ms total)
T1AD8 001:419 JLINK_ClrBPEx(BPHandle = 0x00000002)  returns 0x00 (0000ms, 0341ms total)
T1AD8 001:419 JLINK_ReadMemU32(0xE000ED30, 0x0001 Items, ...) -- CPU_ReadMem(4 bytes @ 0xE000ED30) - Data: 03 00 00 00  returns 0x01 (0001ms, 0342ms total)
T1AD8 001:420 JLINK_ReadMemU32(0xE0001028, 0x0001 Items, ...) -- CPU_ReadMem(4 bytes @ 0xE0001028) - Data: 00 00 00 00  returns 0x01 (0002ms, 0344ms total)
T1AD8 001:422 JLINK_ReadMemU32(0xE0001038, 0x0001 Items, ...) -- CPU_ReadMem(4 bytes @ 0xE0001038) - Data: 00 02 00 00  returns 0x01 (0001ms, 0345ms total)
T1AD8 001:423 JLINK_ReadMemU32(0xE0001048, 0x0001 Items, ...) -- CPU_ReadMem(4 bytes @ 0xE0001048) - Data: 00 00 00 00  returns 0x01 (0001ms, 0346ms total)
T1AD8 001:424 JLINK_ReadMemU32(0xE0001058, 0x0001 Items, ...) -- CPU_ReadMem(4 bytes @ 0xE0001058) - Data: 00 00 00 00  returns 0x01 (0002ms, 0348ms total)
T1AD8 001:426 JLINK_ReadReg(R0)  returns 0x080039CD (0000ms, 0348ms total)
T1AD8 001:426 JLINK_ReadReg(R1)  returns 0x20001F80 (0000ms, 0348ms total)
T1AD8 001:426 JLINK_ReadReg(R2)  returns 0x00000000 (0000ms, 0348ms total)
T1AD8 001:426 JLINK_ReadReg(R3)  returns 0x080023E9 (0000ms, 0348ms total)
T1AD8 001:426 JLINK_ReadReg(R4)  returns 0x08003FC8 (0000ms, 0348ms total)
T1AD8 001:426 JLINK_ReadReg(R5)  returns 0x08003FC8 (0000ms, 0348ms total)
T1AD8 001:426 JLINK_ReadReg(R6)  returns 0x00000000 (0000ms, 0348ms total)
T1AD8 001:426 JLINK_ReadReg(R7)  returns 0x00000000 (0000ms, 0348ms total)
T1AD8 001:426 JLINK_ReadReg(R8)  returns 0x00000000 (0000ms, 0348ms total)
T1AD8 001:426 JLINK_ReadReg(R9)  returns 0x00000000 (0000ms, 0348ms total)
T1AD8 001:426 JLINK_ReadReg(R10)  returns 0x00000000 (0000ms, 0348ms total)
T1AD8 001:426 JLINK_ReadReg(R11)  returns 0x00000000 (0000ms, 0348ms total)
T1AD8 001:426 JLINK_ReadReg(R12)  returns 0x00000000 (0000ms, 0348ms total)
T1AD8 001:426 JLINK_ReadReg(R13 (SP))  returns 0x20001F80 (0000ms, 0348ms total)
T1AD8 001:426 JLINK_ReadReg(R14)  returns 0x080002B1 (0000ms, 0348ms total)
T1AD8 001:426 JLINK_ReadReg(R15 (PC))  returns 0x080039CC (0000ms, 0348ms total)
T1AD8 001:426 JLINK_ReadReg(XPSR)  returns 0x61000000 (0000ms, 0348ms total)
T1AD8 001:426 JLINK_ReadReg(MSP)  returns 0x20001F80 (0000ms, 0348ms total)
T1AD8 001:426 JLINK_ReadReg(PSP)  returns 0x00000000 (0000ms, 0348ms total)
T1AD8 001:426 JLINK_ReadReg(CFBP)  returns 0x00000000 (0000ms, 0348ms total)
T1AD8 001:426 JLINK_ReadReg(FPSCR)  returns 0x00000000 (0006ms, 0354ms total)
T1AD8 001:432 JLINK_ReadReg(FPS0)  returns 0x00000000 (0000ms, 0354ms total)
T1AD8 001:432 JLINK_ReadReg(FPS1)  returns 0x00000000 (0000ms, 0354ms total)
T1AD8 001:432 JLINK_ReadReg(FPS2)  returns 0x00000000 (0000ms, 0354ms total)
T1AD8 001:432 JLINK_ReadReg(FPS3)  returns 0x00000000 (0000ms, 0354ms total)
T1AD8 001:432 JLINK_ReadReg(FPS4)  returns 0x00000000 (0000ms, 0354ms total)
T1AD8 001:432 JLINK_ReadReg(FPS5)  returns 0x00000000 (0000ms, 0354ms total)
T1AD8 001:432 JLINK_ReadReg(FPS6)  returns 0x00000000 (0000ms, 0354ms total)
T1AD8 001:432 JLINK_ReadReg(FPS7)  returns 0x00000000 (0000ms, 0354ms total)
T1AD8 001:432 JLINK_ReadReg(FPS8)  returns 0x00000000 (0000ms, 0354ms total)
T1AD8 001:432 JLINK_ReadReg(FPS9)  returns 0x00000000 (0000ms, 0354ms total)
T1AD8 001:432 JLINK_ReadReg(FPS10)  returns 0x00000000 (0000ms, 0354ms total)
T1AD8 001:432 JLINK_ReadReg(FPS11)  returns 0x00000000 (0000ms, 0354ms total)
T1AD8 001:432 JLINK_ReadReg(FPS12)  returns 0x00000000 (0000ms, 0354ms total)
T1AD8 001:433 JLINK_ReadReg(FPS13)  returns 0x00000000 (0000ms, 0355ms total)
T1AD8 001:433 JLINK_ReadReg(FPS14)  returns 0x00000000 (0000ms, 0355ms total)
T1AD8 001:433 JLINK_ReadReg(FPS15)  returns 0x00000000 (0000ms, 0355ms total)
T1AD8 001:433 JLINK_ReadReg(FPS16)  returns 0x00000000 (0000ms, 0355ms total)
T1AD8 001:433 JLINK_ReadReg(FPS17)  returns 0x00000000 (0000ms, 0355ms total)
T1AD8 001:433 JLINK_ReadReg(FPS18)  returns 0x00000000 (0000ms, 0355ms total)
T1AD8 001:433 JLINK_ReadReg(FPS19)  returns 0x00000000 (0000ms, 0355ms total)
T1AD8 001:433 JLINK_ReadReg(FPS20)  returns 0x00000000 (0000ms, 0355ms total)
T1AD8 001:433 JLINK_ReadReg(FPS21)  returns 0x00000000 (0000ms, 0355ms total)
T1AD8 001:433 JLINK_ReadReg(FPS22)  returns 0x00000000 (0000ms, 0355ms total)
T1AD8 001:433 JLINK_ReadReg(FPS23)  returns 0x00000000 (0000ms, 0355ms total)
T1AD8 001:433 JLINK_ReadReg(FPS24)  returns 0x00000000 (0000ms, 0355ms total)
T1AD8 001:433 JLINK_ReadReg(FPS25)  returns 0x00000000 (0000ms, 0355ms total)
T1AD8 001:433 JLINK_ReadReg(FPS26)  returns 0x00000000 (0000ms, 0355ms total)
T1AD8 001:433 JLINK_ReadReg(FPS27)  returns 0x00000000 (0000ms, 0355ms total)
T1AD8 001:433 JLINK_ReadReg(FPS28)  returns 0x00000000 (0000ms, 0355ms total)
T1AD8 001:433 JLINK_ReadReg(FPS29)  returns 0x00000000 (0000ms, 0355ms total)
T1AD8 001:433 JLINK_ReadReg(FPS30)  returns 0x00000000 (0000ms, 0355ms total)
T1AD8 001:433 JLINK_ReadReg(FPS31)  returns 0x00000000 (0000ms, 0355ms total)
T1C18 001:447 JLINK_ReadMem (0x080038CC, 0x003C Bytes, ...) -- CPU_ReadMem(128 bytes @ 0x080038C0) -- Updating C cache (128 bytes @ 0x080038C0) -- Read from C cache (60 bytes @ 0x080038CC) - Data: 38 09 01 E0 C7 F3 0B 00 80 46 29 E0 68 6A 00 EB ...  returns 0x00 (0001ms, 0356ms total)
T1C18 001:449 JLINK_ReadMem (0x08003908, 0x003C Bytes, ...) -- CPU_ReadMem(64 bytes @ 0x08003940) -- Updating C cache (64 bytes @ 0x08003940) -- Read from C cache (60 bytes @ 0x08003908) - Data: 77 F9 00 B1 0E E0 40 F2 FF 11 01 EA 84 02 05 F1 ...  returns 0x00 (0001ms, 0358ms total)
T1C18 001:450 JLINK_ReadMem (0x08003944, 0x003C Bytes, ...) -- Read from C cache (60 bytes @ 0x08003944) - Data: 49 1C 0D 78 21 2D 02 D3 0D 78 3A 2D F8 D1 0D 78 ...  returns 0x00 (0000ms, 0358ms total)
T1C18 001:450 JLINK_ReadMem (0x08003980, 0x003C Bytes, ...) -- CPU_ReadMem(64 bytes @ 0x08003980) -- Updating C cache (64 bytes @ 0x08003980) -- Read from C cache (60 bytes @ 0x08003980) - Data: 70 B5 05 46 0C 46 04 F1 1A 00 00 F0 18 F8 06 46 ...  returns 0x00 (0001ms, 0359ms total)
T1C18 001:451 JLINK_ReadMem (0x080039BC, 0x003C Bytes, ...) -- CPU_ReadMem(64 bytes @ 0x080039C0) -- Updating C cache (64 bytes @ 0x080039C0) -- Read from C cache (60 bytes @ 0x080039BC) - Data: 70 47 01 46 48 78 0A 78 42 EA 00 20 70 47 00 00 ...  returns 0x00 (0002ms, 0361ms total)
T1AD8 003:210 JLINK_SetBPEx(Addr = 0x08003A0C, Type = 0xFFFFFFF2)  returns 0x00000003 (0000ms, 0361ms total)
T1AD8 003:210 JLINK_Go() -- CPU_ReadMem(4 bytes @ 0xE0001000) -- CPU_WriteMem(4 bytes @ 0xE0002008) -- CPU_WriteMem(4 bytes @ 0xE000200C) (0004ms, 0365ms total)
T1AD8 003:314 JLINK_IsHalted()  returns TRUE (0005ms, 0370ms total)
T1AD8 003:319 JLINK_Halt()  returns 0x00 (0000ms, 0365ms total)
T1AD8 003:319 JLINK_IsHalted()  returns TRUE (0000ms, 0365ms total)
T1AD8 003:319 JLINK_IsHalted()  returns TRUE (0000ms, 0365ms total)
T1AD8 003:319 JLINK_IsHalted()  returns TRUE (0000ms, 0365ms total)
T1AD8 003:319 JLINK_ReadReg(R15 (PC))  returns 0x08003A0C (0000ms, 0365ms total)
T1AD8 003:319 JLINK_ReadReg(XPSR)  returns 0x61000000 (0000ms, 0365ms total)
T1AD8 003:319 JLINK_ClrBPEx(BPHandle = 0x00000003)  returns 0x00 (0000ms, 0365ms total)
T1AD8 003:319 JLINK_ReadMemU32(0xE000ED30, 0x0001 Items, ...) -- CPU_ReadMem(4 bytes @ 0xE000ED30) - Data: 03 00 00 00  returns 0x01 (0001ms, 0366ms total)
T1AD8 003:320 JLINK_ReadMemU32(0xE0001028, 0x0001 Items, ...) -- CPU_ReadMem(4 bytes @ 0xE0001028) - Data: 00 00 00 00  returns 0x01 (0001ms, 0367ms total)
T1AD8 003:321 JLINK_ReadMemU32(0xE0001038, 0x0001 Items, ...) -- CPU_ReadMem(4 bytes @ 0xE0001038) - Data: 00 02 00 00  returns 0x01 (0001ms, 0368ms total)
T1AD8 003:322 JLINK_ReadMemU32(0xE0001048, 0x0001 Items, ...) -- CPU_ReadMem(4 bytes @ 0xE0001048) - Data: 00 00 00 00  returns 0x01 (0002ms, 0370ms total)
T1AD8 003:324 JLINK_ReadMemU32(0xE0001058, 0x0001 Items, ...) -- CPU_ReadMem(4 bytes @ 0xE0001058) - Data: 00 00 00 00  returns 0x01 (0002ms, 0372ms total)
T1AD8 003:326 JLINK_ReadReg(R0)  returns 0x00000000 (0000ms, 0372ms total)
T1AD8 003:326 JLINK_ReadReg(R1)  returns 0x20000004 (0000ms, 0372ms total)
T1AD8 003:326 JLINK_ReadReg(R2)  returns 0x00000000 (0000ms, 0372ms total)
T1AD8 003:326 JLINK_ReadReg(R3)  returns 0x200004B0 (0000ms, 0372ms total)
T1AD8 003:326 JLINK_ReadReg(R4)  returns 0x08003FC8 (0000ms, 0372ms total)
T1AD8 003:326 JLINK_ReadReg(R5)  returns 0x08003FC8 (0000ms, 0372ms total)
T1AD8 003:326 JLINK_ReadReg(R6)  returns 0x00000000 (0000ms, 0372ms total)
T1AD8 003:326 JLINK_ReadReg(R7)  returns 0x00000000 (0000ms, 0372ms total)
T1AD8 003:326 JLINK_ReadReg(R8)  returns 0x00000000 (0000ms, 0372ms total)
T1AD8 003:326 JLINK_ReadReg(R9)  returns 0x00000000 (0000ms, 0372ms total)
T1AD8 003:326 JLINK_ReadReg(R10)  returns 0x00000000 (0000ms, 0372ms total)
T1AD8 003:326 JLINK_ReadReg(R11)  returns 0x00000000 (0000ms, 0372ms total)
T1AD8 003:326 JLINK_ReadReg(R12)  returns 0x00000054 (0000ms, 0372ms total)
T1AD8 003:326 JLINK_ReadReg(R13 (SP))  returns 0x20001F80 (0000ms, 0372ms total)
T1AD8 003:326 JLINK_ReadReg(R14)  returns 0x08002FB5 (0000ms, 0372ms total)
T1AD8 003:326 JLINK_ReadReg(R15 (PC))  returns 0x08003A0C (0000ms, 0372ms total)
T1AD8 003:326 JLINK_ReadReg(XPSR)  returns 0x61000000 (0000ms, 0372ms total)
T1AD8 003:326 JLINK_ReadReg(MSP)  returns 0x20001F80 (0000ms, 0372ms total)
T1AD8 003:326 JLINK_ReadReg(PSP)  returns 0x00000000 (0000ms, 0372ms total)
T1AD8 003:326 JLINK_ReadReg(CFBP)  returns 0x00000000 (0001ms, 0373ms total)
T1AD8 003:327 JLINK_ReadReg(FPSCR)  returns 0x00000000 (0005ms, 0378ms total)
T1AD8 003:332 JLINK_ReadReg(FPS0)  returns 0x00000000 (0000ms, 0378ms total)
T1AD8 003:332 JLINK_ReadReg(FPS1)  returns 0x00000000 (0000ms, 0378ms total)
T1AD8 003:332 JLINK_ReadReg(FPS2)  returns 0x00000000 (0000ms, 0378ms total)
T1AD8 003:332 JLINK_ReadReg(FPS3)  returns 0x00000000 (0000ms, 0378ms total)
T1AD8 003:332 JLINK_ReadReg(FPS4)  returns 0x00000000 (0000ms, 0378ms total)
T1AD8 003:332 JLINK_ReadReg(FPS5)  returns 0x00000000 (0000ms, 0378ms total)
T1AD8 003:332 JLINK_ReadReg(FPS6)  returns 0x00000000 (0000ms, 0378ms total)
T1AD8 003:332 JLINK_ReadReg(FPS7)  returns 0x00000000 (0000ms, 0378ms total)
T1AD8 003:332 JLINK_ReadReg(FPS8)  returns 0x00000000 (0000ms, 0378ms total)
T1AD8 003:332 JLINK_ReadReg(FPS9)  returns 0x00000000 (0000ms, 0378ms total)
T1AD8 003:332 JLINK_ReadReg(FPS10)  returns 0x00000000 (0000ms, 0378ms total)
T1AD8 003:332 JLINK_ReadReg(FPS11)  returns 0x00000000 (0000ms, 0378ms total)
T1AD8 003:332 JLINK_ReadReg(FPS12)  returns 0x00000000 (0000ms, 0378ms total)
T1AD8 003:332 JLINK_ReadReg(FPS13)  returns 0x00000000 (0000ms, 0378ms total)
T1AD8 003:332 JLINK_ReadReg(FPS14)  returns 0x00000000 (0000ms, 0378ms total)
T1AD8 003:332 JLINK_ReadReg(FPS15)  returns 0x00000000 (0000ms, 0378ms total)
T1AD8 003:332 JLINK_ReadReg(FPS16)  returns 0x00000000 (0000ms, 0378ms total)
T1AD8 003:332 JLINK_ReadReg(FPS17)  returns 0x00000000 (0000ms, 0378ms total)
T1AD8 003:332 JLINK_ReadReg(FPS18)  returns 0x00000000 (0000ms, 0378ms total)
T1AD8 003:332 JLINK_ReadReg(FPS19)  returns 0x00000000 (0001ms, 0379ms total)
T1AD8 003:333 JLINK_ReadReg(FPS20)  returns 0x00000000 (0000ms, 0379ms total)
T1AD8 003:333 JLINK_ReadReg(FPS21)  returns 0x00000000 (0000ms, 0379ms total)
T1AD8 003:333 JLINK_ReadReg(FPS22)  returns 0x00000000 (0000ms, 0379ms total)
T1AD8 003:333 JLINK_ReadReg(FPS23)  returns 0x00000000 (0000ms, 0379ms total)
T1AD8 003:333 JLINK_ReadReg(FPS24)  returns 0x00000000 (0000ms, 0379ms total)
T1AD8 003:333 JLINK_ReadReg(FPS25)  returns 0x00000000 (0000ms, 0379ms total)
T1AD8 003:333 JLINK_ReadReg(FPS26)  returns 0x00000000 (0000ms, 0379ms total)
T1AD8 003:333 JLINK_ReadReg(FPS27)  returns 0x00000000 (0000ms, 0379ms total)
T1AD8 003:333 JLINK_ReadReg(FPS28)  returns 0x00000000 (0000ms, 0379ms total)
T1AD8 003:333 JLINK_ReadReg(FPS29)  returns 0x00000000 (0000ms, 0379ms total)
T1AD8 003:333 JLINK_ReadReg(FPS30)  returns 0x00000000 (0000ms, 0379ms total)
T1AD8 003:333 JLINK_ReadReg(FPS31)  returns 0x00000000 (0000ms, 0379ms total)
T1C18 003:338 JLINK_ReadMem (0x080039FE, 0x0002 Bytes, ...) -- CPU_ReadMem(64 bytes @ 0x080039C0) -- Updating C cache (64 bytes @ 0x080039C0) -- Read from C cache (2 bytes @ 0x080039FE) - Data: 0A 22  returns 0x00 (0002ms, 0381ms total)
T1C18 003:340 JLINK_ReadMem (0x08003A00, 0x003C Bytes, ...) -- CPU_ReadMem(64 bytes @ 0x08003A00) -- Updating C cache (64 bytes @ 0x08003A00) -- Read from C cache (60 bytes @ 0x08003A00) - Data: 3F A1 42 48 FF F7 26 FA 33 49 08 70 08 46 00 78 ...  returns 0x00 (0002ms, 0383ms total)
T1C18 004:712 JLINK_ReadMem (0x20000004, 0x0001 Bytes, ...) -- CPU_ReadMem(64 bytes @ 0x20000000) -- Updating C cache (64 bytes @ 0x20000000) -- Read from C cache (1 bytes @ 0x20000004) - Data: 00  returns 0x00 (0002ms, 0385ms total)
T1AD8 005:493 JLINK_Step() -- Read from C cache (2 bytes @ 0x08003A0C) -- CPU_ReadMem(4 bytes @ 0xE000ED18) -- CPU_WriteMem(4 bytes @ 0xE000ED18) -- CPU_ReadMem(4 bytes @ 0xE000ED18) -- CPU_WriteMem(4 bytes @ 0xE000ED18) -- CPU_ReadMem(4 bytes @ 0xE0001004) -- Simulated  returns 0x00 (0008ms, 0393ms total)
T1AD8 005:501 JLINK_ReadReg(R15 (PC))  returns 0x08003A0E (0000ms, 0393ms total)
T1AD8 005:501 JLINK_ReadReg(XPSR)  returns 0x61000000 (0000ms, 0393ms total)
T1AD8 005:501 JLINK_Step() -- Read from C cache (2 bytes @ 0x08003A0E) -- Read from C cache (1 bytes @ 0x20000004) -- Simulated  returns 0x00 (0000ms, 0393ms total)
T1AD8 005:501 JLINK_ReadReg(R15 (PC))  returns 0x08003A10 (0000ms, 0393ms total)
T1AD8 005:501 JLINK_ReadReg(XPSR)  returns 0x61000000 (0000ms, 0393ms total)
T1AD8 005:501 JLINK_Step() -- Read from C cache (2 bytes @ 0x08003A10) -- Simulated  returns 0x00 (0000ms, 0393ms total)
T1AD8 005:501 JLINK_ReadReg(R15 (PC))  returns 0x08003A12 (0000ms, 0393ms total)
T1AD8 005:501 JLINK_ReadReg(XPSR)  returns 0x61000000 (0000ms, 0393ms total)
T1AD8 005:501 JLINK_ReadReg(R0)  returns 0x00000000 (0000ms, 0393ms total)
T1AD8 005:501 JLINK_ReadReg(R1)  returns 0x20000004 (0000ms, 0393ms total)
T1AD8 005:501 JLINK_ReadReg(R2)  returns 0x00000000 (0000ms, 0393ms total)
T1AD8 005:501 JLINK_ReadReg(R3)  returns 0x200004B0 (0000ms, 0393ms total)
T1AD8 005:501 JLINK_ReadReg(R4)  returns 0x08003FC8 (0000ms, 0393ms total)
T1AD8 005:501 JLINK_ReadReg(R5)  returns 0x08003FC8 (0000ms, 0393ms total)
T1AD8 005:501 JLINK_ReadReg(R6)  returns 0x00000000 (0000ms, 0393ms total)
T1AD8 005:501 JLINK_ReadReg(R7)  returns 0x00000000 (0000ms, 0393ms total)
T1AD8 005:501 JLINK_ReadReg(R8)  returns 0x00000000 (0000ms, 0393ms total)
T1AD8 005:501 JLINK_ReadReg(R9)  returns 0x00000000 (0001ms, 0394ms total)
T1AD8 005:502 JLINK_ReadReg(R10)  returns 0x00000000 (0000ms, 0394ms total)
T1AD8 005:502 JLINK_ReadReg(R11)  returns 0x00000000 (0000ms, 0394ms total)
T1AD8 005:502 JLINK_ReadReg(R12)  returns 0x00000054 (0000ms, 0394ms total)
T1AD8 005:502 JLINK_ReadReg(R13 (SP))  returns 0x20001F80 (0000ms, 0394ms total)
T1AD8 005:502 JLINK_ReadReg(R14)  returns 0x08002FB5 (0000ms, 0394ms total)
T1AD8 005:502 JLINK_ReadReg(R15 (PC))  returns 0x08003A12 (0000ms, 0394ms total)
T1AD8 005:502 JLINK_ReadReg(XPSR)  returns 0x61000000 (0000ms, 0394ms total)
T1AD8 005:502 JLINK_ReadReg(MSP)  returns 0x20001F80 (0000ms, 0394ms total)
T1AD8 005:502 JLINK_ReadReg(PSP)  returns 0x00000000 (0000ms, 0394ms total)
T1AD8 005:502 JLINK_ReadReg(CFBP)  returns 0x00000000 (0000ms, 0394ms total)
T1AD8 005:502 JLINK_ReadReg(FPSCR)  returns 0x00000000 (0000ms, 0394ms total)
T1AD8 005:502 JLINK_ReadReg(FPS0)  returns 0x00000000 (0000ms, 0394ms total)
T1AD8 005:502 JLINK_ReadReg(FPS1)  returns 0x00000000 (0000ms, 0394ms total)
T1AD8 005:502 JLINK_ReadReg(FPS2)  returns 0x00000000 (0000ms, 0394ms total)
T1AD8 005:502 JLINK_ReadReg(FPS3)  returns 0x00000000 (0000ms, 0394ms total)
T1AD8 005:502 JLINK_ReadReg(FPS4)  returns 0x00000000 (0000ms, 0394ms total)
T1AD8 005:502 JLINK_ReadReg(FPS5)  returns 0x00000000 (0000ms, 0394ms total)
T1AD8 005:502 JLINK_ReadReg(FPS6)  returns 0x00000000 (0000ms, 0394ms total)
T1AD8 005:502 JLINK_ReadReg(FPS7)  returns 0x00000000 (0000ms, 0394ms total)
T1AD8 005:502 JLINK_ReadReg(FPS8)  returns 0x00000000 (0000ms, 0394ms total)
T1AD8 005:502 JLINK_ReadReg(FPS9)  returns 0x00000000 (0000ms, 0394ms total)
T1AD8 005:502 JLINK_ReadReg(FPS10)  returns 0x00000000 (0000ms, 0394ms total)
T1AD8 005:502 JLINK_ReadReg(FPS11)  returns 0x00000000 (0000ms, 0394ms total)
T1AD8 005:502 JLINK_ReadReg(FPS12)  returns 0x00000000 (0000ms, 0394ms total)
T1AD8 005:502 JLINK_ReadReg(FPS13)  returns 0x00000000 (0000ms, 0394ms total)
T1AD8 005:502 JLINK_ReadReg(FPS14)  returns 0x00000000 (0000ms, 0394ms total)
T1AD8 005:502 JLINK_ReadReg(FPS15)  returns 0x00000000 (0001ms, 0395ms total)
T1AD8 005:503 JLINK_ReadReg(FPS16)  returns 0x00000000 (0000ms, 0395ms total)
T1AD8 005:503 JLINK_ReadReg(FPS17)  returns 0x00000000 (0000ms, 0395ms total)
T1AD8 005:503 JLINK_ReadReg(FPS18)  returns 0x00000000 (0000ms, 0395ms total)
T1AD8 005:503 JLINK_ReadReg(FPS19)  returns 0x00000000 (0000ms, 0395ms total)
T1AD8 005:503 JLINK_ReadReg(FPS20)  returns 0x00000000 (0000ms, 0395ms total)
T1AD8 005:503 JLINK_ReadReg(FPS21)  returns 0x00000000 (0000ms, 0395ms total)
T1AD8 005:503 JLINK_ReadReg(FPS22)  returns 0x00000000 (0000ms, 0395ms total)
T1AD8 005:503 JLINK_ReadReg(FPS23)  returns 0x00000000 (0000ms, 0395ms total)
T1AD8 005:503 JLINK_ReadReg(FPS24)  returns 0x00000000 (0000ms, 0395ms total)
T1AD8 005:503 JLINK_ReadReg(FPS25)  returns 0x00000000 (0000ms, 0395ms total)
T1AD8 005:503 JLINK_ReadReg(FPS26)  returns 0x00000000 (0000ms, 0395ms total)
T1AD8 005:503 JLINK_ReadReg(FPS27)  returns 0x00000000 (0000ms, 0395ms total)
T1AD8 005:503 JLINK_ReadReg(FPS28)  returns 0x00000000 (0000ms, 0395ms total)
T1AD8 005:503 JLINK_ReadReg(FPS29)  returns 0x00000000 (0000ms, 0395ms total)
T1AD8 005:503 JLINK_ReadReg(FPS30)  returns 0x00000000 (0000ms, 0395ms total)
T1AD8 005:503 JLINK_ReadReg(FPS31)  returns 0x00000000 (0000ms, 0395ms total)
T1C18 005:511 JLINK_ReadMem (0x080039FE, 0x0002 Bytes, ...) -- Read from C cache (2 bytes @ 0x080039FE) - Data: 0A 22  returns 0x00 (0001ms, 0396ms total)
T1C18 005:512 JLINK_ReadMem (0x08003A00, 0x003C Bytes, ...) -- Read from C cache (60 bytes @ 0x08003A00) - Data: 3F A1 42 48 FF F7 26 FA 33 49 08 70 08 46 00 78 ...  returns 0x00 (0000ms, 0396ms total)
T1AD8 006:273 JLINK_Step() -- Read from C cache (2 bytes @ 0x08003A12) -- CPU_ReadMem(64 bytes @ 0x08003B00) -- Updating C cache (64 bytes @ 0x08003B00) -- Read from C cache (4 bytes @ 0x08003B10) -- Simulated  returns 0x00 (0002ms, 0398ms total)
T1AD8 006:276 JLINK_ReadReg(R15 (PC))  returns 0x08003A14 (0000ms, 0398ms total)
T1AD8 006:276 JLINK_ReadReg(XPSR)  returns 0x61000000 (0000ms, 0398ms total)
T1AD8 006:276 JLINK_Step() -- Read from C cache (2 bytes @ 0x08003A14) -- Read from C cache (4 bytes @ 0x20000008) -- Simulated  returns 0x00 (0000ms, 0398ms total)
T1AD8 006:276 JLINK_ReadReg(R15 (PC))  returns 0x08003A16 (0000ms, 0398ms total)
T1AD8 006:276 JLINK_ReadReg(XPSR)  returns 0x61000000 (0000ms, 0398ms total)
T1AD8 006:276 JLINK_SetBPEx(Addr = 0x08003A1A, Type = 0xFFFFFFF2)  returns 0x00000004 (0000ms, 0398ms total)
T1AD8 006:276 JLINK_SetBPEx(Addr = 0x08003A0C, Type = 0xFFFFFFF2)  returns 0x00000005 (0000ms, 0398ms total)
T1AD8 006:276 JLINK_Go() -- CPU_ReadMem(4 bytes @ 0xE0001000) -- CPU_WriteMem(4 bytes @ 0xE0002008) -- CPU_WriteMem(4 bytes @ 0xE000200C) -- CPU_WriteMem(4 bytes @ 0xE0001004) (0006ms, 0404ms total)
T1AD8 006:382 JLINK_IsHalted()  returns TRUE (0003ms, 0407ms total)
T1AD8 006:385 JLINK_Halt()  returns 0x00 (0000ms, 0404ms total)
T1AD8 006:385 JLINK_IsHalted()  returns TRUE (0000ms, 0404ms total)
T1AD8 006:385 JLINK_IsHalted()  returns TRUE (0000ms, 0404ms total)
T1AD8 006:385 JLINK_IsHalted()  returns TRUE (0000ms, 0404ms total)
T1AD8 006:385 JLINK_ReadReg(R15 (PC))  returns 0x08003A1A (0000ms, 0404ms total)
T1AD8 006:385 JLINK_ReadReg(XPSR)  returns 0x21000000 (0000ms, 0404ms total)
T1AD8 006:385 JLINK_ClrBPEx(BPHandle = 0x00000004)  returns 0x00 (0000ms, 0404ms total)
T1AD8 006:385 JLINK_ClrBPEx(BPHandle = 0x00000005)  returns 0x00 (0000ms, 0404ms total)
T1AD8 006:385 JLINK_ReadMemU32(0xE000ED30, 0x0001 Items, ...) -- CPU_ReadMem(4 bytes @ 0xE000ED30) - Data: 03 00 00 00  returns 0x01 (0002ms, 0406ms total)
T1AD8 006:387 JLINK_ReadMemU32(0xE0001028, 0x0001 Items, ...) -- CPU_ReadMem(4 bytes @ 0xE0001028) - Data: 00 00 00 00  returns 0x01 (0001ms, 0407ms total)
T1AD8 006:388 JLINK_ReadMemU32(0xE0001038, 0x0001 Items, ...) -- CPU_ReadMem(4 bytes @ 0xE0001038) - Data: 00 02 00 00  returns 0x01 (0001ms, 0408ms total)
T1AD8 006:389 JLINK_ReadMemU32(0xE0001048, 0x0001 Items, ...) -- CPU_ReadMem(4 bytes @ 0xE0001048) - Data: 00 00 00 00  returns 0x01 (0002ms, 0410ms total)
T1AD8 006:391 JLINK_ReadMemU32(0xE0001058, 0x0001 Items, ...) -- CPU_ReadMem(4 bytes @ 0xE0001058) - Data: 00 00 00 00  returns 0x01 (0001ms, 0411ms total)
T1AD8 006:392 JLINK_Step() -- CPU_ReadMem(64 bytes @ 0x08003A00) -- Updating C cache (64 bytes @ 0x08003A00) -- Read from C cache (2 bytes @ 0x08003A1A) -- CPU_ReadMem(4 bytes @ 0xE0001004) -- Simulated  returns 0x00 (0003ms, 0414ms total)
T1AD8 006:395 JLINK_ReadReg(R15 (PC))  returns 0x08003A1C (0000ms, 0414ms total)
T1AD8 006:395 JLINK_ReadReg(XPSR)  returns 0x21000000 (0000ms, 0414ms total)
T1AD8 006:395 JLINK_Step() -- Read from C cache (2 bytes @ 0x08003A1C) -- CPU_ReadMem(64 bytes @ 0x08003B00) -- Updating C cache (64 bytes @ 0x08003B00) -- Read from C cache (4 bytes @ 0x08003B14) -- Simulated  returns 0x00 (0001ms, 0415ms total)
T1AD8 006:396 JLINK_ReadReg(R15 (PC))  returns 0x08003A1E (0000ms, 0415ms total)
T1AD8 006:396 JLINK_ReadReg(XPSR)  returns 0x21000000 (0000ms, 0415ms total)
T1AD8 006:396 JLINK_Step() -- Read from C cache (2 bytes @ 0x08003A1E) -- Simulated  returns 0x00 (0000ms, 0415ms total)
T1AD8 006:396 JLINK_ReadReg(R15 (PC))  returns 0x08003A20 (0000ms, 0415ms total)
T1AD8 006:396 JLINK_ReadReg(XPSR)  returns 0x21000000 (0000ms, 0415ms total)
T1AD8 006:396 JLINK_Step() -- Read from C cache (2 bytes @ 0x08003A20) -- Read from C cache (4 bytes @ 0x08003B10) -- Simulated  returns 0x00 (0000ms, 0415ms total)
T1AD8 006:396 JLINK_ReadReg(R15 (PC))  returns 0x08003A22 (0000ms, 0415ms total)
T1AD8 006:396 JLINK_ReadReg(XPSR)  returns 0x21000000 (0000ms, 0415ms total)
T1AD8 006:397 JLINK_Step() -- Read from C cache (2 bytes @ 0x08003A22) -- CPU_ReadMem(64 bytes @ 0x20000000) -- Updating C cache (64 bytes @ 0x20000000) -- Read from C cache (4 bytes @ 0x20000008) -- Simulated  returns 0x00 (0001ms, 0417ms total)
T1AD8 006:398 JLINK_ReadReg(R15 (PC))  returns 0x08003A24 (0000ms, 0417ms total)
T1AD8 006:398 JLINK_ReadReg(XPSR)  returns 0x21000000 (0000ms, 0417ms total)
T1AD8 006:398 JLINK_Step() -- Read from C cache (2 bytes @ 0x08003A24) -- Read from C cache (4 bytes @ 0x08003B0C) -- Simulated  returns 0x00 (0000ms, 0417ms total)
T1AD8 006:398 JLINK_ReadReg(R15 (PC))  returns 0x08003A26 (0000ms, 0417ms total)
T1AD8 006:398 JLINK_ReadReg(XPSR)  returns 0x21000000 (0000ms, 0417ms total)
T1AD8 006:398 JLINK_SetBPEx(Addr = 0x08003A2A, Type = 0xFFFFFFF2)  returns 0x00000006 (0000ms, 0417ms total)
T1AD8 006:398 JLINK_SetBPEx(Addr = 0x08003A0C, Type = 0xFFFFFFF2)  returns 0x00000007 (0000ms, 0417ms total)
T1AD8 006:398 JLINK_Go() -- CPU_ReadMem(4 bytes @ 0xE0001000) -- CPU_WriteMem(4 bytes @ 0xE0002008) -- CPU_WriteMem(4 bytes @ 0xE0001004) (0005ms, 0422ms total)
T1AD8 006:503 JLINK_IsHalted()  returns TRUE (0003ms, 0425ms total)
T1AD8 006:506 JLINK_Halt()  returns 0x00 (0000ms, 0422ms total)
T1AD8 006:506 JLINK_IsHalted()  returns TRUE (0000ms, 0422ms total)
T1AD8 006:506 JLINK_IsHalted()  returns TRUE (0000ms, 0422ms total)
T1AD8 006:507 JLINK_IsHalted()  returns TRUE (0000ms, 0422ms total)
T1AD8 006:507 JLINK_ReadReg(R15 (PC))  returns 0x08003A2A (0000ms, 0422ms total)
T1AD8 006:507 JLINK_ReadReg(XPSR)  returns 0x61000000 (0000ms, 0422ms total)
T1AD8 006:507 JLINK_ClrBPEx(BPHandle = 0x00000006)  returns 0x00 (0000ms, 0422ms total)
T1AD8 006:507 JLINK_ClrBPEx(BPHandle = 0x00000007)  returns 0x00 (0000ms, 0422ms total)
T1AD8 006:507 JLINK_ReadMemU32(0xE000ED30, 0x0001 Items, ...) -- CPU_ReadMem(4 bytes @ 0xE000ED30) - Data: 03 00 00 00  returns 0x01 (0001ms, 0423ms total)
T1AD8 006:508 JLINK_ReadMemU32(0xE0001028, 0x0001 Items, ...) -- CPU_ReadMem(4 bytes @ 0xE0001028) - Data: 00 00 00 00  returns 0x01 (0001ms, 0424ms total)
T1AD8 006:509 JLINK_ReadMemU32(0xE0001038, 0x0001 Items, ...) -- CPU_ReadMem(4 bytes @ 0xE0001038) - Data: 00 02 00 00  returns 0x01 (0001ms, 0425ms total)
T1AD8 006:510 JLINK_ReadMemU32(0xE0001048, 0x0001 Items, ...) -- CPU_ReadMem(4 bytes @ 0xE0001048) - Data: 00 00 00 00  returns 0x01 (0001ms, 0426ms total)
T1AD8 006:511 JLINK_ReadMemU32(0xE0001058, 0x0001 Items, ...) -- CPU_ReadMem(4 bytes @ 0xE0001058) - Data: 00 00 00 00  returns 0x01 (0002ms, 0428ms total)
T1AD8 006:513 JLINK_Step() -- CPU_ReadMem(64 bytes @ 0x08003A00) -- Updating C cache (64 bytes @ 0x08003A00) -- Read from C cache (2 bytes @ 0x08003A2A) -- CPU_ReadMem(4 bytes @ 0xE0001004) -- CPU_ReadMem(64 bytes @ 0x08003AC0) -- Updating C cache (64 bytes @ 0x08003AC0) -- Read from C cache (4 bytes @ 0x08003AD8) -- Simulated  returns 0x00 (0003ms, 0431ms total)
T1AD8 006:516 JLINK_ReadReg(R15 (PC))  returns 0x08003A2C (0000ms, 0431ms total)
T1AD8 006:516 JLINK_ReadReg(XPSR)  returns 0x61000000 (0000ms, 0431ms total)
T1AD8 006:516 JLINK_Step() -- Read from C cache (2 bytes @ 0x08003A2C) -- CPU_WriteMem(1 bytes @ 0x20000004) -- Simulated  returns 0x00 (0001ms, 0432ms total)
T1AD8 006:517 JLINK_ReadReg(R15 (PC))  returns 0x08003A2E (0000ms, 0432ms total)
T1AD8 006:517 JLINK_ReadReg(XPSR)  returns 0x61000000 (0000ms, 0432ms total)
T1AD8 006:517 JLINK_ReadReg(R0)  returns 0x00000000 (0000ms, 0432ms total)
T1AD8 006:517 JLINK_ReadReg(R1)  returns 0x20000004 (0000ms, 0432ms total)
T1AD8 006:518 JLINK_ReadReg(R2)  returns 0x00000000 (0000ms, 0432ms total)
T1AD8 006:518 JLINK_ReadReg(R3)  returns 0x200002C3 (0000ms, 0432ms total)
T1AD8 006:518 JLINK_ReadReg(R4)  returns 0x00000013 (0000ms, 0432ms total)
T1AD8 006:518 JLINK_ReadReg(R5)  returns 0x08003FC8 (0000ms, 0432ms total)
T1AD8 006:518 JLINK_ReadReg(R6)  returns 0x00000000 (0000ms, 0432ms total)
T1AD8 006:518 JLINK_ReadReg(R7)  returns 0x00000000 (0000ms, 0432ms total)
T1AD8 006:518 JLINK_ReadReg(R8)  returns 0x00000000 (0000ms, 0432ms total)
T1AD8 006:518 JLINK_ReadReg(R9)  returns 0x00000000 (0000ms, 0432ms total)
T1AD8 006:518 JLINK_ReadReg(R10)  returns 0x00000000 (0000ms, 0432ms total)
T1AD8 006:518 JLINK_ReadReg(R11)  returns 0x00000000 (0000ms, 0432ms total)
T1AD8 006:518 JLINK_ReadReg(R12)  returns 0x00000054 (0000ms, 0432ms total)
T1AD8 006:518 JLINK_ReadReg(R13 (SP))  returns 0x20001F80 (0000ms, 0432ms total)
T1AD8 006:518 JLINK_ReadReg(R14)  returns 0x0800340B (0000ms, 0432ms total)
T1AD8 006:518 JLINK_ReadReg(R15 (PC))  returns 0x08003A2E (0000ms, 0432ms total)
T1AD8 006:518 JLINK_ReadReg(XPSR)  returns 0x61000000 (0000ms, 0432ms total)
T1AD8 006:518 JLINK_ReadReg(MSP)  returns 0x20001F80 (0000ms, 0432ms total)
T1AD8 006:518 JLINK_ReadReg(PSP)  returns 0x00000000 (0000ms, 0432ms total)
T1AD8 006:518 JLINK_ReadReg(CFBP)  returns 0x00000000 (0000ms, 0432ms total)
T1AD8 006:518 JLINK_ReadReg(FPSCR)  returns 0x00000000 (0005ms, 0437ms total)
T1AD8 006:523 JLINK_ReadReg(FPS0)  returns 0x00000000 (0000ms, 0437ms total)
T1AD8 006:523 JLINK_ReadReg(FPS1)  returns 0x00000000 (0000ms, 0437ms total)
T1AD8 006:523 JLINK_ReadReg(FPS2)  returns 0x00000000 (0000ms, 0437ms total)
T1AD8 006:523 JLINK_ReadReg(FPS3)  returns 0x00000000 (0000ms, 0437ms total)
T1AD8 006:523 JLINK_ReadReg(FPS4)  returns 0x00000000 (0000ms, 0437ms total)
T1AD8 006:523 JLINK_ReadReg(FPS5)  returns 0x00000000 (0000ms, 0437ms total)
T1AD8 006:523 JLINK_ReadReg(FPS6)  returns 0x00000000 (0000ms, 0437ms total)
T1AD8 006:523 JLINK_ReadReg(FPS7)  returns 0x00000000 (0000ms, 0437ms total)
T1AD8 006:523 JLINK_ReadReg(FPS8)  returns 0x00000000 (0000ms, 0437ms total)
T1AD8 006:523 JLINK_ReadReg(FPS9)  returns 0x00000000 (0000ms, 0437ms total)
T1AD8 006:523 JLINK_ReadReg(FPS10)  returns 0x00000000 (0000ms, 0437ms total)
T1AD8 006:523 JLINK_ReadReg(FPS11)  returns 0x00000000 (0000ms, 0437ms total)
T1AD8 006:523 JLINK_ReadReg(FPS12)  returns 0x00000000 (0000ms, 0437ms total)
T1AD8 006:523 JLINK_ReadReg(FPS13)  returns 0x00000000 (0000ms, 0437ms total)
T1AD8 006:523 JLINK_ReadReg(FPS14)  returns 0x00000000 (0000ms, 0437ms total)
T1AD8 006:523 JLINK_ReadReg(FPS15)  returns 0x00000000 (0000ms, 0437ms total)
T1AD8 006:523 JLINK_ReadReg(FPS16)  returns 0x00000000 (0000ms, 0437ms total)
T1AD8 006:523 JLINK_ReadReg(FPS17)  returns 0x00000000 (0000ms, 0437ms total)
T1AD8 006:523 JLINK_ReadReg(FPS18)  returns 0x00000000 (0000ms, 0437ms total)
T1AD8 006:523 JLINK_ReadReg(FPS19)  returns 0x00000000 (0001ms, 0438ms total)
T1AD8 006:524 JLINK_ReadReg(FPS20)  returns 0x00000000 (0000ms, 0438ms total)
T1AD8 006:524 JLINK_ReadReg(FPS21)  returns 0x00000000 (0000ms, 0438ms total)
T1AD8 006:524 JLINK_ReadReg(FPS22)  returns 0x00000000 (0000ms, 0438ms total)
T1AD8 006:524 JLINK_ReadReg(FPS23)  returns 0x00000000 (0000ms, 0438ms total)
T1AD8 006:524 JLINK_ReadReg(FPS24)  returns 0x00000000 (0000ms, 0438ms total)
T1AD8 006:524 JLINK_ReadReg(FPS25)  returns 0x00000000 (0000ms, 0438ms total)
T1AD8 006:524 JLINK_ReadReg(FPS26)  returns 0x00000000 (0000ms, 0438ms total)
T1AD8 006:524 JLINK_ReadReg(FPS27)  returns 0x00000000 (0000ms, 0438ms total)
T1AD8 006:524 JLINK_ReadReg(FPS28)  returns 0x00000000 (0000ms, 0438ms total)
T1AD8 006:524 JLINK_ReadReg(FPS29)  returns 0x00000000 (0000ms, 0438ms total)
T1AD8 006:524 JLINK_ReadReg(FPS30)  returns 0x00000000 (0000ms, 0438ms total)
T1AD8 006:524 JLINK_ReadReg(FPS31)  returns 0x00000000 (0000ms, 0438ms total)
T1C18 006:528 JLINK_ReadMem (0x08003A12, 0x0002 Bytes, ...) -- Read from C cache (2 bytes @ 0x08003A12) - Data: 3F 48  returns 0x00 (0000ms, 0438ms total)
T1C18 006:528 JLINK_ReadMem (0x08003A14, 0x003C Bytes, ...) -- CPU_ReadMem(64 bytes @ 0x08003A40) -- Updating C cache (64 bytes @ 0x08003A40) -- Read from C cache (60 bytes @ 0x08003A14) - Data: 00 68 FC F7 16 FC 04 46 3D 4B 22 46 3B 48 01 68 ...  returns 0x00 (0001ms, 0439ms total)
T1C18 008:150 JLINK_ReadMem (0x20000004, 0x0001 Bytes, ...) -- CPU_ReadMem(64 bytes @ 0x20000000) -- Updating C cache (64 bytes @ 0x20000000) -- Read from C cache (1 bytes @ 0x20000004) - Data: 00  returns 0x00 (0003ms, 0442ms total)
T1AD8 009:533 JLINK_Step() -- Read from C cache (2 bytes @ 0x08003A2E) -- Simulated  returns 0x00 (0001ms, 0443ms total)
T1AD8 009:534 JLINK_ReadReg(R15 (PC))  returns 0x08003A30 (0000ms, 0443ms total)
T1AD8 009:534 JLINK_ReadReg(XPSR)  returns 0x61000000 (0000ms, 0443ms total)
T1AD8 009:534 JLINK_Step() -- Read from C cache (2 bytes @ 0x08003A30) -- Read from C cache (1 bytes @ 0x20000004) -- Simulated  returns 0x00 (0000ms, 0443ms total)
T1AD8 009:534 JLINK_ReadReg(R15 (PC))  returns 0x08003A32 (0000ms, 0443ms total)
T1AD8 009:535 JLINK_ReadReg(XPSR)  returns 0x61000000 (0000ms, 0444ms total)
T1AD8 009:535 JLINK_Step() -- Read from C cache (2 bytes @ 0x08003A32) -- Simulated  returns 0x00 (0000ms, 0444ms total)
T1AD8 009:535 JLINK_ReadReg(R15 (PC))  returns 0x08003A34 (0000ms, 0444ms total)
T1AD8 009:535 JLINK_ReadReg(XPSR)  returns 0x61000000 (0000ms, 0444ms total)
T1AD8 009:535 JLINK_Step() -- Read from C cache (2 bytes @ 0x08003A34) -- Simulated  returns 0x00 (0000ms, 0444ms total)
T1AD8 009:535 JLINK_ReadReg(R15 (PC))  returns 0x08003A36 (0000ms, 0444ms total)
T1AD8 009:535 JLINK_ReadReg(XPSR)  returns 0x61000000 (0000ms, 0444ms total)
T1AD8 009:535 JLINK_ReadReg(R0)  returns 0x00000000 (0000ms, 0444ms total)
T1AD8 009:535 JLINK_ReadReg(R1)  returns 0x20000004 (0000ms, 0444ms total)
T1AD8 009:535 JLINK_ReadReg(R2)  returns 0x00000000 (0000ms, 0444ms total)
T1AD8 009:535 JLINK_ReadReg(R3)  returns 0x200002C3 (0000ms, 0444ms total)
T1AD8 009:535 JLINK_ReadReg(R4)  returns 0x00000013 (0000ms, 0444ms total)
T1AD8 009:535 JLINK_ReadReg(R5)  returns 0x08003FC8 (0000ms, 0444ms total)
T1AD8 009:535 JLINK_ReadReg(R6)  returns 0x00000000 (0000ms, 0444ms total)
T1AD8 009:535 JLINK_ReadReg(R7)  returns 0x00000000 (0000ms, 0444ms total)
T1AD8 009:535 JLINK_ReadReg(R8)  returns 0x00000000 (0000ms, 0444ms total)
T1AD8 009:535 JLINK_ReadReg(R9)  returns 0x00000000 (0000ms, 0444ms total)
T1AD8 009:535 JLINK_ReadReg(R10)  returns 0x00000000 (0000ms, 0444ms total)
T1AD8 009:535 JLINK_ReadReg(R11)  returns 0x00000000 (0000ms, 0444ms total)
T1AD8 009:535 JLINK_ReadReg(R12)  returns 0x00000054 (0000ms, 0444ms total)
T1AD8 009:535 JLINK_ReadReg(R13 (SP))  returns 0x20001F80 (0000ms, 0444ms total)
T1AD8 009:536 JLINK_ReadReg(R14)  returns 0x0800340B (0000ms, 0445ms total)
T1AD8 009:536 JLINK_ReadReg(R15 (PC))  returns 0x08003A36 (0000ms, 0445ms total)
T1AD8 009:536 JLINK_ReadReg(XPSR)  returns 0x61000000 (0000ms, 0445ms total)
T1AD8 009:536 JLINK_ReadReg(MSP)  returns 0x20001F80 (0000ms, 0445ms total)
T1AD8 009:536 JLINK_ReadReg(PSP)  returns 0x00000000 (0000ms, 0445ms total)
T1AD8 009:536 JLINK_ReadReg(CFBP)  returns 0x00000000 (0000ms, 0445ms total)
T1AD8 009:536 JLINK_ReadReg(FPSCR)  returns 0x00000000 (0000ms, 0445ms total)
T1AD8 009:536 JLINK_ReadReg(FPS0)  returns 0x00000000 (0000ms, 0445ms total)
T1AD8 009:536 JLINK_ReadReg(FPS1)  returns 0x00000000 (0000ms, 0445ms total)
T1AD8 009:536 JLINK_ReadReg(FPS2)  returns 0x00000000 (0000ms, 0445ms total)
T1AD8 009:536 JLINK_ReadReg(FPS3)  returns 0x00000000 (0000ms, 0445ms total)
T1AD8 009:536 JLINK_ReadReg(FPS4)  returns 0x00000000 (0000ms, 0445ms total)
T1AD8 009:536 JLINK_ReadReg(FPS5)  returns 0x00000000 (0000ms, 0445ms total)
T1AD8 009:536 JLINK_ReadReg(FPS6)  returns 0x00000000 (0000ms, 0445ms total)
T1AD8 009:536 JLINK_ReadReg(FPS7)  returns 0x00000000 (0000ms, 0445ms total)
T1AD8 009:536 JLINK_ReadReg(FPS8)  returns 0x00000000 (0000ms, 0445ms total)
T1AD8 009:536 JLINK_ReadReg(FPS9)  returns 0x00000000 (0000ms, 0445ms total)
T1AD8 009:536 JLINK_ReadReg(FPS10)  returns 0x00000000 (0000ms, 0445ms total)
T1AD8 009:536 JLINK_ReadReg(FPS11)  returns 0x00000000 (0000ms, 0445ms total)
T1AD8 009:536 JLINK_ReadReg(FPS12)  returns 0x00000000 (0000ms, 0445ms total)
T1AD8 009:536 JLINK_ReadReg(FPS13)  returns 0x00000000 (0000ms, 0445ms total)
T1AD8 009:536 JLINK_ReadReg(FPS14)  returns 0x00000000 (0000ms, 0445ms total)
T1AD8 009:536 JLINK_ReadReg(FPS15)  returns 0x00000000 (0000ms, 0445ms total)
T1AD8 009:536 JLINK_ReadReg(FPS16)  returns 0x00000000 (0000ms, 0445ms total)
T1AD8 009:536 JLINK_ReadReg(FPS17)  returns 0x00000000 (0000ms, 0445ms total)
T1AD8 009:536 JLINK_ReadReg(FPS18)  returns 0x00000000 (0000ms, 0445ms total)
T1AD8 009:536 JLINK_ReadReg(FPS19)  returns 0x00000000 (0000ms, 0445ms total)
T1AD8 009:537 JLINK_ReadReg(FPS20)  returns 0x00000000 (0000ms, 0446ms total)
T1AD8 009:537 JLINK_ReadReg(FPS21)  returns 0x00000000 (0000ms, 0446ms total)
T1AD8 009:537 JLINK_ReadReg(FPS22)  returns 0x00000000 (0000ms, 0446ms total)
T1AD8 009:537 JLINK_ReadReg(FPS23)  returns 0x00000000 (0000ms, 0446ms total)
T1AD8 009:537 JLINK_ReadReg(FPS24)  returns 0x00000000 (0000ms, 0446ms total)
T1AD8 009:537 JLINK_ReadReg(FPS25)  returns 0x00000000 (0000ms, 0446ms total)
T1AD8 009:537 JLINK_ReadReg(FPS26)  returns 0x00000000 (0000ms, 0446ms total)
T1AD8 009:537 JLINK_ReadReg(FPS27)  returns 0x00000000 (0000ms, 0446ms total)
T1AD8 009:537 JLINK_ReadReg(FPS28)  returns 0x00000000 (0000ms, 0446ms total)
T1AD8 009:537 JLINK_ReadReg(FPS29)  returns 0x00000000 (0000ms, 0446ms total)
T1AD8 009:537 JLINK_ReadReg(FPS30)  returns 0x00000000 (0000ms, 0446ms total)
T1AD8 009:537 JLINK_ReadReg(FPS31)  returns 0x00000000 (0000ms, 0446ms total)
T1C18 009:546 JLINK_ReadMem (0x08003A12, 0x0002 Bytes, ...) -- Read from C cache (2 bytes @ 0x08003A12) - Data: 3F 48  returns 0x00 (0000ms, 0446ms total)
T1C18 009:546 JLINK_ReadMem (0x08003A14, 0x003C Bytes, ...) -- Read from C cache (60 bytes @ 0x08003A14) - Data: 00 68 FC F7 16 FC 04 46 3D 4B 22 46 3B 48 01 68 ...  returns 0x00 (0000ms, 0446ms total)
T1AD8 011:557 JLINK_Step() -- Read from C cache (2 bytes @ 0x08003A36) -- Simulated  returns 0x00 (0001ms, 0447ms total)
T1AD8 011:559 JLINK_ReadReg(R15 (PC))  returns 0x08003A38 (0000ms, 0447ms total)
T1AD8 011:559 JLINK_ReadReg(XPSR)  returns 0x61000000 (0000ms, 0447ms total)
T1AD8 011:559 JLINK_SetBPEx(Addr = 0x08003A3C, Type = 0xFFFFFFF2)  returns 0x00000008 (0000ms, 0447ms total)
T1AD8 011:559 JLINK_SetBPEx(Addr = 0x08003A0C, Type = 0xFFFFFFF2)  returns 0x00000009 (0000ms, 0447ms total)
T1AD8 011:559 JLINK_Go() -- CPU_ReadMem(4 bytes @ 0xE0001000) -- CPU_WriteMem(4 bytes @ 0xE0002008) -- CPU_WriteMem(4 bytes @ 0xE0001004) (0005ms, 0452ms total)
T1AD8 011:666 JLINK_IsHalted()  returns TRUE (0003ms, 0455ms total)
T1AD8 011:669 JLINK_Halt()  returns 0x00 (0000ms, 0452ms total)
T1AD8 011:669 JLINK_IsHalted()  returns TRUE (0000ms, 0452ms total)
T1AD8 011:669 JLINK_IsHalted()  returns TRUE (0000ms, 0452ms total)
T1AD8 011:669 JLINK_IsHalted()  returns TRUE (0000ms, 0452ms total)
T1AD8 011:669 JLINK_ReadReg(R15 (PC))  returns 0x08003A3C (0001ms, 0453ms total)
T1AD8 011:670 JLINK_ReadReg(XPSR)  returns 0x61000000 (0000ms, 0453ms total)
T1AD8 011:670 JLINK_ClrBPEx(BPHandle = 0x00000008)  returns 0x00 (0000ms, 0453ms total)
T1AD8 011:670 JLINK_ClrBPEx(BPHandle = 0x00000009)  returns 0x00 (0000ms, 0453ms total)
T1AD8 011:670 JLINK_ReadMemU32(0xE000ED30, 0x0001 Items, ...) -- CPU_ReadMem(4 bytes @ 0xE000ED30) - Data: 03 00 00 00  returns 0x01 (0001ms, 0454ms total)
T1AD8 011:671 JLINK_ReadMemU32(0xE0001028, 0x0001 Items, ...) -- CPU_ReadMem(4 bytes @ 0xE0001028) - Data: 00 00 00 00  returns 0x01 (0001ms, 0455ms total)
T1AD8 011:672 JLINK_ReadMemU32(0xE0001038, 0x0001 Items, ...) -- CPU_ReadMem(4 bytes @ 0xE0001038) - Data: 00 02 00 00  returns 0x01 (0001ms, 0456ms total)
T1AD8 011:673 JLINK_ReadMemU32(0xE0001048, 0x0001 Items, ...) -- CPU_ReadMem(4 bytes @ 0xE0001048) - Data: 00 00 00 00  returns 0x01 (0002ms, 0458ms total)
T1AD8 011:675 JLINK_ReadMemU32(0xE0001058, 0x0001 Items, ...) -- CPU_ReadMem(4 bytes @ 0xE0001058) - Data: 00 00 00 00  returns 0x01 (0001ms, 0459ms total)
T1AD8 011:676 JLINK_Step() -- CPU_ReadMem(64 bytes @ 0x08003A00) -- Updating C cache (64 bytes @ 0x08003A00) -- Read from C cache (2 bytes @ 0x08003A3C) -- CPU_ReadMem(4 bytes @ 0xE0001004) -- Simulated  returns 0x00 (0003ms, 0462ms total)
T1AD8 011:679 JLINK_ReadReg(R15 (PC))  returns 0x08003A5C (0000ms, 0462ms total)
T1AD8 011:679 JLINK_ReadReg(XPSR)  returns 0x61000000 (0000ms, 0462ms total)
T1AD8 011:679 JLINK_ReadReg(R0)  returns 0x00000016 (0000ms, 0462ms total)
